T3148 6443:197 SEGGER J-Link V6.44a Log File (0000ms, 14082ms total)
T3148 6443:197 DLL Compiled: Mar  8 2019 17:31:48 (0000ms, 14082ms total)
T3148 6443:197 Logging started @ 2021-02-27 14:58 (0000ms, 14082ms total)
T3148 6443:197 JLINK_SetWarnOutHandler(...) (0000ms, 14082ms total)
T3148 6443:197 JLINK_OpenEx(...)
Firmware: J-Link V9 compiled Oct 25 2018 11:46:07
Hardware: V9.40
S/N: 59406895
Feature(s): RDI, GDB, FlashDL, FlashBP, JFlash
TELNET listener socket opened on port 19021WEBSRV 
Starting webserver (0022ms, 14104ms total)
T3148 6443:197 WEBSRV Webserver running on local port 19080 (0022ms, 14104ms total)
T3148 6443:197   returns O.K. (0022ms, 14104ms total)
T3148 6443:219 JLINK_GetEmuCaps()  returns 0xB9FF7BBF (0000ms, 14104ms total)
T3148 6443:219 JLINK_TIF_GetAvailable(...) (0001ms, 14105ms total)
T3148 6443:220 JLINK_SetErrorOutHandler(...) (0000ms, 14105ms total)
T3148 6443:220 JLINK_ExecCommand("ProjectFile = "F:\1·É¿Øc8t6\USER\JLinkSettings.ini"", ...).   returns 0x00 (0001ms, 14106ms total)
T3148 6443:228 JLINK_ExecCommand("Device = STM32F103C8", ...). Device "STM32F103C8" selected.  returns 0x00 (0006ms, 14112ms total)
T3148 6443:234 JLINK_ExecCommand("DisableConnectionTimeout", ...).   returns 0x01 (0000ms, 14112ms total)
T3148 6443:234 JLINK_GetHardwareVersion()  returns 0x16F30 (0000ms, 14112ms total)
T3148 6443:234 JLINK_GetDLLVersion()  returns 64401 (0000ms, 14112ms total)
T3148 6443:234 JLINK_GetFirmwareString(...) (0000ms, 14112ms total)
T3148 6443:242 JLINK_GetDLLVersion()  returns 64401 (0000ms, 14112ms total)
T3148 6443:242 JLINK_GetCompileDateTime() (0000ms, 14112ms total)
T3148 6443:243 JLINK_GetFirmwareString(...) (0000ms, 14112ms total)
T3148 6443:245 JLINK_GetHardwareVersion()  returns 0x16F30 (0000ms, 14112ms total)
T3148 6443:252 JLINK_TIF_Select(JLINKARM_TIF_SWD)  returns 0x00 (0000ms, 14112ms total)
T3148 6443:252 JLINK_SetSpeed(5000) (0000ms, 14112ms total)
T3148 6443:252 JLINK_GetId() >0x10B TIF>Found SW-DP with ID 0x2BA01477 >0x0D TIF> >0x28 TIF> >0x0D TIF> >0x28 TIF> >0x0D TIF> >0x28 TIF> >0x0D TIF> >0x28 TIF> >0x0D TIF> >0x21 TIF> >0x0D TIF> >0x28 TIF> >0x0D TIF> >0x28 TIF> >0x0D TIF> >0x28 TIF> >0x0D TIF> >0x21 TIF> >0x0D TIF> >0x21 TIF> >0x0D TIF> >0x28 TIF> >0x0D TIF> >0x21 TIF> >0x0D TIF> >0x21 TIF> >0x0D TIF> >0x28 TIF> >0x0D TIF> >0x28 TIF> >0x0D TIF> >0x28 TIF> >0x0D TIF> >0x21 TIF> >0x0D TIF> >0x21 TIF> >0x0D TIF> >0x28 TIF> >0x0D TIF>
 >0x21 TIF> >0x0D TIF> >0x21 TIF> >0x0D TIF> >0x28 TIF> >0x0D TIF> >0x21 TIF> >0x0D TIF> >0x21 TIF> >0x0D TIF> >0x28 TIF> >0x0D TIF> >0x21 TIF> >0x0D TIF> >0x21 TIF> >0x0D TIF> >0x28 TIF> >0x0D TIF> >0x21 TIF> >0x0D TIF> >0x21 TIF> >0x10B TIF>Found SW-DP with ID 0x2BA01477 >0x0D TIF> >0x28 TIF> >0x0D TIF> >0x28 TIF> >0x0D TIF> >0x28 TIF> >0x0D TIF> >0x28 TIF> >0x0D TIF> >0x21 TIF> >0x0D TIF> >0x28 TIF>Scanning AP map to find all available APs >0x0D TIF> >0x28 TIF> >0x0D TIF> >0x21 TIF> >0x0D TIF>
 >0x21 TIF> >0x0D TIF> >0x28 TIF> >0x0D TIF> >0x21 TIF> >0x0D TIF> >0x21 TIF>AP[1]: Stopped AP scan as end of AP map has been reachedAP[0]: AHB-AP (IDR: 0x24770011)Iterating through AP map to find AHB-AP to use >0x42 TIF> >0x28 TIF> >0x0D TIF> >0x28 TIF> >0x0D TIF> >0x21 TIF> >0x0D TIF> >0x21 TIF> >0x42 TIF> >0x28 TIF> >0x0D TIF> >0x28 TIF> >0x0D TIF> >0x28 TIF> >0x0D TIF> >0x21 TIF> >0x0D TIF> >0x21 TIF>AP[0]: Core foundAP[0]: AHB-AP ROM base: 0xE00FF000 >0x0D TIF> >0x28 TIF> >0x0D TIF> >0x28 TIF>
 >0x0D TIF> >0x28 TIF> >0x0D TIF> >0x21 TIF> >0x0D TIF> >0x21 TIF>CPUID register: 0x412FC231. Implementer code: 0x41 (ARM)Found Cortex-M3 r2p1, Little endian. -- Max. mem block: 0x00010F28 -- CPU_ReadMem(4 bytes @ 0xE000EDF0) -- CPU_WriteMem(4 bytes @ 0xE000EDF0) -- CPU_ReadMem(4 bytes @ 0xE0002000)FPUnit: 6 code (BP) slots and 2 literal slots -- CPU_ReadMem(4 bytes @ 0xE000EDFC) -- CPU_WriteMem(4 bytes @ 0xE000EDFC) -- CPU_ReadMem(4 bytes @ 0xE0001000) -- CPU_WriteMem(4 bytes @ 0xE0001000)
 -- CPU_ReadMem(4 bytes @ 0xE000ED88) -- CPU_WriteMem(4 bytes @ 0xE000ED88) -- CPU_ReadMem(4 bytes @ 0xE000ED88) -- CPU_WriteMem(4 bytes @ 0xE000ED88)CoreSight components:ROMTbl[0] @ E00FF000 -- CPU_ReadMem(16 bytes @ 0xE00FF000) -- CPU_ReadMem(16 bytes @ 0xE000EFF0) -- CPU_ReadMem(16 bytes @ 0xE000EFE0)ROMTbl[0][0]: E000E000, CID: B105E00D, PID: 000BB000 SCS -- CPU_ReadMem(16 bytes @ 0xE0001FF0) -- CPU_ReadMem(16 bytes @ 0xE0001FE0)ROMTbl[0][1]: E0001000, CID: B105E00D, PID: 003BB002 DWT
 -- CPU_ReadMem(16 bytes @ 0xE0002FF0) -- CPU_ReadMem(16 bytes @ 0xE0002FE0)ROMTbl[0][2]: E0002000, CID: B105E00D, PID: 002BB003 FPB -- CPU_ReadMem(16 bytes @ 0xE0000FF0) -- CPU_ReadMem(16 bytes @ 0xE0000FE0)ROMTbl[0][3]: E0000000, CID: B105E00D, PID: 003BB001 ITM -- CPU_ReadMem(16 bytes @ 0xE00FF010) -- CPU_ReadMem(16 bytes @ 0xE0040FF0) -- CPU_ReadMem(16 bytes @ 0xE0040FE0)ROMTbl[0][4]: E0040000, CID: B105900D, PID: 003BB923 TPIU-Lite -- CPU_ReadMem(16 bytes @ 0xE0041FF0)
 -- CPU_ReadMem(16 bytes @ 0xE0041FE0)ROMTbl[0][5]: E0041000, CID: B105900D, PID: 003BB924 ETM-M3 >0x0D TIF> >0x21 TIF>  returns 0x2BA01477 (0162ms, 14274ms total)
T3148 6443:414 JLINK_GetDLLVersion()  returns 64401 (0000ms, 14274ms total)
T3148 6443:414 JLINK_CORE_GetFound()  returns 0x30000FF (0000ms, 14274ms total)
T3148 6443:414 JLINK_GetDebugInfo(0x100 = JLINKARM_ROM_TABLE_ADDR_INDEX) -- Value=0xE00FF000  returns 0x00 (0000ms, 14274ms total)
T3148 6443:416 JLINK_GetDebugInfo(0x100 = JLINKARM_ROM_TABLE_ADDR_INDEX) -- Value=0xE00FF000  returns 0x00 (0000ms, 14274ms total)
T3148 6443:416 JLINK_GetDebugInfo(0x101 = JLINKARM_DEBUG_INFO_ETM_ADDR_INDEX) -- Value=0xE0041000  returns 0x00 (0000ms, 14274ms total)
T3148 6443:416 JLINK_ReadMemEx(0xE0041FD0, 0x0020 Bytes, ..., Flags = 0x02000004) -- CPU_ReadMem(32 bytes @ 0xE0041FD0) - Data: 04 00 00 00 00 00 00 00 00 00 00 00 00 00 00 00 ...  returns 0x20 (0001ms, 14275ms total)
T3148 6443:417 JLINK_GetDebugInfo(0x102 = JLINKARM_DEBUG_INFO_MTB_ADDR_INDEX) -- Value=0x00000000  returns 0x00 (0000ms, 14275ms total)
T3148 6443:417 JLINK_GetDebugInfo(0x103 = JLINKARM_DEBUG_INFO_TPIU_ADDR_INDEX) -- Value=0xE0040000  returns 0x00 (0000ms, 14275ms total)
T3148 6443:417 JLINK_GetDebugInfo(0x104 = JLINKARM_DEBUG_INFO_ITM_ADDR_INDEX) -- Value=0xE0000000  returns 0x00 (0000ms, 14275ms total)
T3148 6443:417 JLINK_GetDebugInfo(0x105 = JLINKARM_DEBUG_INFO_DWT_ADDR_INDEX) -- Value=0xE0001000  returns 0x00 (0000ms, 14275ms total)
T3148 6443:417 JLINK_GetDebugInfo(0x106 = JLINKARM_DEBUG_INFO_FPB_ADDR_INDEX) -- Value=0xE0002000  returns 0x00 (0000ms, 14275ms total)
T3148 6443:417 JLINK_GetDebugInfo(0x107 = JLINKARM_DEBUG_INFO_NVIC_ADDR_INDEX) -- Value=0xE000E000  returns 0x00 (0000ms, 14275ms total)
T3148 6443:417 JLINK_GetDebugInfo(0x10C = JLINKARM_DEBUG_INFO_DBG_ADDR_INDEX) -- Value=0xE000EDF0  returns 0x00 (0000ms, 14275ms total)
T3148 6443:417 JLINK_GetDebugInfo(0x01 = Unknown) -- Value=0x00000000  returns 0x00 (0000ms, 14275ms total)
T3148 6443:417 JLINK_ReadMemU32(0xE000ED00, 0x0001 Items, ...) -- CPU_ReadMem(4 bytes @ 0xE000ED00) - Data: 31 C2 2F 41  returns 1 (0001ms, 14276ms total)
T3148 6443:418 JLINK_GetDebugInfo(0x10F = JLINKARM_DEBUG_INFO_HAS_CORTEX_M_SECURITY_EXT_INDEX) -- Value=0x00000000  returns 0x00 (0000ms, 14276ms total)
T3148 6443:418 JLINK_SetResetType(JLINKARM_CM3_RESET_TYPE_NORMAL)  returns JLINKARM_CM3_RESET_TYPE_NORMAL (0000ms, 14276ms total)
T3148 6443:418 JLINK_Reset() -- CPU is running -- CPU_WriteMem(4 bytes @ 0xE000EDF0) -- CPU is running -- CPU_WriteMem(4 bytes @ 0xE000EDFC)Reset: Halt core after reset via DEMCR.VC_CORERESET. >0x35 TIF>Reset: Reset device via AIRCR.SYSRESETREQ. -- CPU is running -- CPU_WriteMem(4 bytes @ 0xE000ED0C) >0x0D TIF> >0x28 TIF> -- CPU_ReadMem(4 bytes @ 0xE000EDF0) -- CPU_ReadMem(4 bytes @ 0xE000EDF0) -- CPU is running -- CPU_WriteMem(4 bytes @ 0xE000EDF0) -- CPU is running -- CPU_WriteMem(4 bytes @ 0xE000EDFC)
 -- CPU_ReadMem(4 bytes @ 0xE000EDF0) -- CPU_WriteMem(4 bytes @ 0xE0002000) -- CPU_ReadMem(4 bytes @ 0xE000EDFC) -- CPU_ReadMem(4 bytes @ 0xE0001000) (0067ms, 14343ms total)
T3148 6443:485 JLINK_Halt()  returns 0x00 (0000ms, 14343ms total)
T3148 6443:485 JLINK_ReadMemU32(0xE000EDF0, 0x0001 Items, ...) -- CPU_ReadMem(4 bytes @ 0xE000EDF0) - Data: 03 00 03 00  returns 1 (0001ms, 14344ms total)
T3148 6443:486 JLINK_WriteU32(0xE000EDF0, 0xA05F0003) -- CPU_WriteMem(4 bytes @ 0xE000EDF0)  returns 0 (0000ms, 14344ms total)
T3148 6443:486 JLINK_WriteU32(0xE000EDFC, 0x01000000) -- CPU_WriteMem(4 bytes @ 0xE000EDFC)  returns 0 (0000ms, 14344ms total)
T3148 6443:493 JLINK_GetHWStatus(...)  returns 0x00 (0001ms, 14345ms total)
T3148 6443:498 JLINK_GetNumBPUnits(Type = 0xFFFFFF00)  returns 0x06 (0000ms, 14345ms total)
T3148 6443:499 JLINK_GetNumBPUnits(Type = 0xF0)  returns 0x2000 (0000ms, 14346ms total)
T3148 6443:499 JLINK_GetNumWPUnits()  returns 0x04 (0000ms, 14346ms total)
T3148 6443:504 JLINK_GetSpeed()  returns 0xFA0 (0000ms, 14346ms total)
T3148 6443:507 JLINK_ReadMemU32(0xE000E004, 0x0001 Items, ...) -- CPU_ReadMem(4 bytes @ 0xE000E004) - Data: 01 00 00 00  returns 1 (0000ms, 14346ms total)
T3148 6443:507 JLINK_ReadMemU32(0xE000E004, 0x0001 Items, ...) -- CPU_ReadMem(4 bytes @ 0xE000E004) - Data: 01 00 00 00  returns 1 (0001ms, 14347ms total)
T3148 6443:508 JLINK_WriteMemEx(0xE0001000, 0x001C Bytes, ..., Flags = 0x02000004) - Data: 01 00 00 00 00 00 00 00 00 00 00 00 00 00 00 00 ... -- CPU_WriteMem(28 bytes @ 0xE0001000)  returns 0x1C (0001ms, 14348ms total)
T3148 6443:509 JLINK_Halt()  returns 0x00 (0000ms, 14348ms total)
T3148 6443:509 JLINK_IsHalted()  returns TRUE (0000ms, 14348ms total)
T3148 6443:511 JLINK_WriteMem(0x20000000, 0x0164 Bytes, ...) - Data: 00 BE 0A E0 0D 78 2D 06 68 40 08 24 40 00 00 D3 ... -- CPU_WriteMem(356 bytes @ 0x20000000)  returns 0x164 (0003ms, 14351ms total)
T3148 6443:514 JLINK_WriteReg(R0, 0x08000000)  returns 0x00 (0000ms, 14351ms total)
T3148 6443:514 JLINK_WriteReg(R1, 0x00B71B00)  returns 0x00 (0000ms, 14351ms total)
T3148 6443:514 JLINK_WriteReg(R2, 0x00000001)  returns 0x00 (0000ms, 14351ms total)
T3148 6443:514 JLINK_WriteReg(R3, 0x00000000)  returns 0x00 (0000ms, 14351ms total)
T3148 6443:514 JLINK_WriteReg(R4, 0x00000000)  returns 0x00 (0000ms, 14351ms total)
T3148 6443:514 JLINK_WriteReg(R5, 0x00000000)  returns 0x00 (0000ms, 14351ms total)
T3148 6443:514 JLINK_WriteReg(R6, 0x00000000)  returns 0x00 (0000ms, 14351ms total)
T3148 6443:514 JLINK_WriteReg(R7, 0x00000000)  returns 0x00 (0000ms, 14351ms total)
T3148 6443:514 JLINK_WriteReg(R8, 0x00000000)  returns 0x00 (0000ms, 14351ms total)
T3148 6443:514 JLINK_WriteReg(R9, 0x20000160)  returns 0x00 (0000ms, 14351ms total)
T3148 6443:514 JLINK_WriteReg(R10, 0x00000000)  returns 0x00 (0000ms, 14351ms total)
T3148 6443:514 JLINK_WriteReg(R11, 0x00000000)  returns 0x00 (0000ms, 14351ms total)
T3148 6443:514 JLINK_WriteReg(R12, 0x00000000)  returns 0x00 (0000ms, 14351ms total)
T3148 6443:514 JLINK_WriteReg(R13 (SP), 0x20001000)  returns 0x00 (0000ms, 14351ms total)
T3148 6443:514 JLINK_WriteReg(R14, 0x20000001)  returns 0x00 (0000ms, 14351ms total)
T3148 6443:514 JLINK_WriteReg(R15 (PC), 0x20000038)  returns 0x00 (0000ms, 14351ms total)
T3148 6443:514 JLINK_WriteReg(XPSR, 0x01000000)  returns 0x00 (0000ms, 14351ms total)
T3148 6443:514 JLINK_WriteReg(MSP, 0x20001000)  returns 0x00 (0000ms, 14351ms total)
T3148 6443:514 JLINK_WriteReg(PSP, 0x20001000)  returns 0x00 (0000ms, 14351ms total)
T3148 6443:514 JLINK_WriteReg(CFBP, 0x00000000)  returns 0x00 (0000ms, 14351ms total)
T3148 6443:514 JLINK_SetBPEx(Addr = 0x20000000, Type = 0xFFFFFFF2) -- CPU_ReadMem(2 bytes @ 0x20000000)  returns 0x00000001 (0000ms, 14351ms total)
T3148 6443:514 JLINK_Go() -- CPU_WriteMem(2 bytes @ 0x20000000) -- CPU_ReadMem(4 bytes @ 0xE0001000) -- CPU_WriteMem(4 bytes @ 0xE0002008) -- CPU_WriteMem(4 bytes @ 0xE000200C) -- CPU_WriteMem(4 bytes @ 0xE0002010) -- CPU_WriteMem(4 bytes @ 0xE0002014) -- CPU_WriteMem(4 bytes @ 0xE0002018) -- CPU_WriteMem(4 bytes @ 0xE000201C) -- CPU_WriteMem(4 bytes @ 0xE0001004) (0005ms, 14356ms total)
T3148 6443:519 JLINK_IsHalted() -- CPU_ReadMem(2 bytes @ 0x20000000)  returns TRUE (0003ms, 14359ms total)
T3148 6443:522 JLINK_ReadReg(R15 (PC))  returns 0x20000000 (0000ms, 14356ms total)
T3148 6443:522 JLINK_ClrBPEx(BPHandle = 0x00000001)  returns 0x00 (0000ms, 14356ms total)
T3148 6443:522 JLINK_ReadReg(R0)  returns 0x00000000 (0000ms, 14356ms total)
T3148 6443:522 JLINK_WriteReg(R0, 0x08000000)  returns 0x00 (0000ms, 14356ms total)
T3148 6443:522 JLINK_WriteReg(R1, 0x00B71B00)  returns 0x00 (0000ms, 14356ms total)
T3148 6443:522 JLINK_WriteReg(R2, 0x00000001)  returns 0x00 (0000ms, 14356ms total)
T3148 6443:522 JLINK_WriteReg(R3, 0x00000000)  returns 0x00 (0000ms, 14356ms total)
T3148 6443:522 JLINK_WriteReg(R4, 0x00000000)  returns 0x00 (0000ms, 14356ms total)
T3148 6443:522 JLINK_WriteReg(R5, 0x00000000)  returns 0x00 (0000ms, 14356ms total)
T3148 6443:522 JLINK_WriteReg(R6, 0x00000000)  returns 0x00 (0000ms, 14356ms total)
T3148 6443:522 JLINK_WriteReg(R7, 0x00000000)  returns 0x00 (0000ms, 14356ms total)
T3148 6443:522 JLINK_WriteReg(R8, 0x00000000)  returns 0x00 (0000ms, 14356ms total)
T3148 6443:522 JLINK_WriteReg(R9, 0x20000160)  returns 0x00 (0000ms, 14356ms total)
T3148 6443:522 JLINK_WriteReg(R10, 0x00000000)  returns 0x00 (0000ms, 14356ms total)
T3148 6443:522 JLINK_WriteReg(R11, 0x00000000)  returns 0x00 (0000ms, 14356ms total)
T3148 6443:522 JLINK_WriteReg(R12, 0x00000000)  returns 0x00 (0000ms, 14356ms total)
T3148 6443:522 JLINK_WriteReg(R13 (SP), 0x20001000)  returns 0x00 (0000ms, 14356ms total)
T3148 6443:522 JLINK_WriteReg(R14, 0x20000001)  returns 0x00 (0000ms, 14356ms total)
T3148 6443:522 JLINK_WriteReg(R15 (PC), 0x2000007C)  returns 0x00 (0000ms, 14356ms total)
T3148 6443:522 JLINK_WriteReg(XPSR, 0x01000000)  returns 0x00 (0000ms, 14356ms total)
T3148 6443:522 JLINK_WriteReg(MSP, 0x20001000)  returns 0x00 (0000ms, 14356ms total)
T3148 6443:522 JLINK_WriteReg(PSP, 0x20001000)  returns 0x00 (0000ms, 14356ms total)
T3148 6443:522 JLINK_WriteReg(CFBP, 0x00000000)  returns 0x00 (0000ms, 14356ms total)
T3148 6443:522 JLINK_SetBPEx(Addr = 0x20000000, Type = 0xFFFFFFF2)  returns 0x00000002 (0000ms, 14356ms total)
T3148 6443:522 JLINK_Go() -- CPU_ReadMem(4 bytes @ 0xE0001000) (0002ms, 14358ms total)
T3148 6443:524 JLINK_IsHalted()  returns FALSE (0001ms, 14359ms total)
T3148 6443:560 JLINK_IsHalted() -- CPU_ReadMem(2 bytes @ 0x20000000)  returns TRUE (0002ms, 14360ms total)
T3148 6443:562 JLINK_ReadReg(R15 (PC))  returns 0x20000000 (0000ms, 14358ms total)
T3148 6443:562 JLINK_ClrBPEx(BPHandle = 0x00000002)  returns 0x00 (0000ms, 14358ms total)
T3148 6443:562 JLINK_ReadReg(R0)  returns 0x00000000 (0000ms, 14358ms total)
T3148 6443:613 JLINK_WriteReg(R0, 0x00000001)  returns 0x00 (0000ms, 14358ms total)
T3148 6443:613 JLINK_WriteReg(R1, 0x00B71B00)  returns 0x00 (0000ms, 14358ms total)
T3148 6443:613 JLINK_WriteReg(R2, 0x00000001)  returns 0x00 (0000ms, 14358ms total)
T3148 6443:613 JLINK_WriteReg(R3, 0x00000000)  returns 0x00 (0000ms, 14358ms total)
T3148 6443:613 JLINK_WriteReg(R4, 0x00000000)  returns 0x00 (0000ms, 14358ms total)
T3148 6443:613 JLINK_WriteReg(R5, 0x00000000)  returns 0x00 (0000ms, 14358ms total)
T3148 6443:613 JLINK_WriteReg(R6, 0x00000000)  returns 0x00 (0000ms, 14358ms total)
T3148 6443:613 JLINK_WriteReg(R7, 0x00000000)  returns 0x00 (0000ms, 14358ms total)
T3148 6443:613 JLINK_WriteReg(R8, 0x00000000)  returns 0x00 (0000ms, 14358ms total)
T3148 6443:613 JLINK_WriteReg(R9, 0x20000160)  returns 0x00 (0000ms, 14358ms total)
T3148 6443:613 JLINK_WriteReg(R10, 0x00000000)  returns 0x00 (0000ms, 14358ms total)
T3148 6443:613 JLINK_WriteReg(R11, 0x00000000)  returns 0x00 (0000ms, 14358ms total)
T3148 6443:613 JLINK_WriteReg(R12, 0x00000000)  returns 0x00 (0000ms, 14358ms total)
T3148 6443:613 JLINK_WriteReg(R13 (SP), 0x20001000)  returns 0x00 (0000ms, 14358ms total)
T3148 6443:613 JLINK_WriteReg(R14, 0x20000001)  returns 0x00 (0000ms, 14358ms total)
T3148 6443:614 JLINK_WriteReg(R15 (PC), 0x2000006A)  returns 0x00 (0000ms, 14358ms total)
T3148 6443:614 JLINK_WriteReg(XPSR, 0x01000000)  returns 0x00 (0000ms, 14358ms total)
T3148 6443:614 JLINK_WriteReg(MSP, 0x20001000)  returns 0x00 (0000ms, 14358ms total)
T3148 6443:614 JLINK_WriteReg(PSP, 0x20001000)  returns 0x00 (0000ms, 14358ms total)
T3148 6443:614 JLINK_WriteReg(CFBP, 0x00000000)  returns 0x00 (0000ms, 14358ms total)
T3148 6443:614 JLINK_SetBPEx(Addr = 0x20000000, Type = 0xFFFFFFF2)  returns 0x00000003 (0000ms, 14358ms total)
T3148 6443:614 JLINK_Go() -- CPU_ReadMem(4 bytes @ 0xE0001000) (0003ms, 14361ms total)
T3148 6443:617 JLINK_IsHalted() -- CPU_ReadMem(2 bytes @ 0x20000000)  returns TRUE (0001ms, 14362ms total)
T3148 6443:618 JLINK_ReadReg(R15 (PC))  returns 0x20000000 (0000ms, 14361ms total)
T3148 6443:618 JLINK_ClrBPEx(BPHandle = 0x00000003)  returns 0x00 (0000ms, 14361ms total)
T3148 6443:618 JLINK_ReadReg(R0)  returns 0x00000000 (0000ms, 14361ms total)
T3148 6443:622 JLINK_WriteMem(0x20000000, 0x0164 Bytes, ...) - Data: 00 BE 0A E0 0D 78 2D 06 68 40 08 24 40 00 00 D3 ... -- CPU_WriteMem(356 bytes @ 0x20000000)  returns 0x164 (0003ms, 14364ms total)
T3148 6443:625 JLINK_WriteReg(R0, 0x08000000)  returns 0x00 (0000ms, 14364ms total)
T3148 6443:625 JLINK_WriteReg(R1, 0x00B71B00)  returns 0x00 (0000ms, 14364ms total)
T3148 6443:625 JLINK_WriteReg(R2, 0x00000002)  returns 0x00 (0000ms, 14364ms total)
T3148 6443:625 JLINK_WriteReg(R3, 0x00000000)  returns 0x00 (0000ms, 14364ms total)
T3148 6443:625 JLINK_WriteReg(R4, 0x00000000)  returns 0x00 (0000ms, 14364ms total)
T3148 6443:625 JLINK_WriteReg(R5, 0x00000000)  returns 0x00 (0000ms, 14364ms total)
T3148 6443:625 JLINK_WriteReg(R6, 0x00000000)  returns 0x00 (0000ms, 14364ms total)
T3148 6443:625 JLINK_WriteReg(R7, 0x00000000)  returns 0x00 (0000ms, 14364ms total)
T3148 6443:625 JLINK_WriteReg(R8, 0x00000000)  returns 0x00 (0000ms, 14364ms total)
T3148 6443:625 JLINK_WriteReg(R9, 0x20000160)  returns 0x00 (0000ms, 14364ms total)
T3148 6443:625 JLINK_WriteReg(R10, 0x00000000)  returns 0x00 (0000ms, 14364ms total)
T3148 6443:625 JLINK_WriteReg(R11, 0x00000000)  returns 0x00 (0000ms, 14364ms total)
T3148 6443:625 JLINK_WriteReg(R12, 0x00000000)  returns 0x00 (0000ms, 14364ms total)
T3148 6443:625 JLINK_WriteReg(R13 (SP), 0x20001000)  returns 0x00 (0000ms, 14364ms total)
T3148 6443:625 JLINK_WriteReg(R14, 0x20000001)  returns 0x00 (0000ms, 14364ms total)
T3148 6443:625 JLINK_WriteReg(R15 (PC), 0x20000038)  returns 0x00 (0000ms, 14364ms total)
T3148 6443:625 JLINK_WriteReg(XPSR, 0x01000000)  returns 0x00 (0000ms, 14364ms total)
T3148 6443:625 JLINK_WriteReg(MSP, 0x20001000)  returns 0x00 (0000ms, 14364ms total)
T3148 6443:625 JLINK_WriteReg(PSP, 0x20001000)  returns 0x00 (0000ms, 14364ms total)
T3148 6443:625 JLINK_WriteReg(CFBP, 0x00000000)  returns 0x00 (0000ms, 14364ms total)
T3148 6443:625 JLINK_SetBPEx(Addr = 0x20000000, Type = 0xFFFFFFF2) -- CPU_ReadMem(2 bytes @ 0x20000000)  returns 0x00000004 (0000ms, 14364ms total)
T3148 6443:625 JLINK_Go() -- CPU_WriteMem(2 bytes @ 0x20000000) -- CPU_ReadMem(4 bytes @ 0xE0001000) (0002ms, 14366ms total)
T3148 6443:627 JLINK_IsHalted() -- CPU_ReadMem(2 bytes @ 0x20000000)  returns TRUE (0003ms, 14369ms total)
T3148 6443:630 JLINK_ReadReg(R15 (PC))  returns 0x20000000 (0000ms, 14366ms total)
T3148 6443:630 JLINK_ClrBPEx(BPHandle = 0x00000004)  returns 0x00 (0000ms, 14366ms total)
T3148 6443:630 JLINK_ReadReg(R0)  returns 0x00000000 (0000ms, 14366ms total)
T3148 6443:630 JLINK_WriteMem(0x20000164, 0x029C Bytes, ...) - Data: B8 0D 00 20 FD 33 00 08 05 34 00 08 07 34 00 08 ... -- CPU_WriteMem(668 bytes @ 0x20000164)  returns 0x29C (0003ms, 14369ms total)
T3148 6443:633 JLINK_WriteMem(0x20000400, 0x0164 Bytes, ...) - Data: 9A 61 70 47 01 46 0E 4A 12 88 4A 43 4F F0 E0 23 ... -- CPU_WriteMem(356 bytes @ 0x20000400)  returns 0x164 (0002ms, 14371ms total)
T3148 6443:635 JLINK_WriteReg(R0, 0x08000000)  returns 0x00 (0000ms, 14371ms total)
T3148 6443:635 JLINK_WriteReg(R1, 0x00000400)  returns 0x00 (0000ms, 14371ms total)
T3148 6443:635 JLINK_WriteReg(R2, 0x20000164)  returns 0x00 (0000ms, 14371ms total)
T3148 6443:635 JLINK_WriteReg(R3, 0x00000000)  returns 0x00 (0000ms, 14371ms total)
T3148 6443:635 JLINK_WriteReg(R4, 0x00000000)  returns 0x00 (0000ms, 14371ms total)
T3148 6443:635 JLINK_WriteReg(R5, 0x00000000)  returns 0x00 (0000ms, 14371ms total)
T3148 6443:635 JLINK_WriteReg(R6, 0x00000000)  returns 0x00 (0000ms, 14371ms total)
T3148 6443:635 JLINK_WriteReg(R7, 0x00000000)  returns 0x00 (0000ms, 14371ms total)
T3148 6443:635 JLINK_WriteReg(R8, 0x00000000)  returns 0x00 (0000ms, 14371ms total)
T3148 6443:635 JLINK_WriteReg(R9, 0x20000160)  returns 0x00 (0000ms, 14371ms total)
T3148 6443:635 JLINK_WriteReg(R10, 0x00000000)  returns 0x00 (0000ms, 14371ms total)
T3148 6443:635 JLINK_WriteReg(R11, 0x00000000)  returns 0x00 (0000ms, 14371ms total)
T3148 6443:635 JLINK_WriteReg(R12, 0x00000000)  returns 0x00 (0000ms, 14371ms total)
T3148 6443:635 JLINK_WriteReg(R13 (SP), 0x20001000)  returns 0x00 (0000ms, 14371ms total)
T3148 6443:635 JLINK_WriteReg(R14, 0x20000001)  returns 0x00 (0000ms, 14371ms total)
T3148 6443:635 JLINK_WriteReg(R15 (PC), 0x200000F4)  returns 0x00 (0000ms, 14371ms total)
T3148 6443:635 JLINK_WriteReg(XPSR, 0x01000000)  returns 0x00 (0000ms, 14371ms total)
T3148 6443:635 JLINK_WriteReg(MSP, 0x20001000)  returns 0x00 (0000ms, 14371ms total)
T3148 6443:635 JLINK_WriteReg(PSP, 0x20001000)  returns 0x00 (0000ms, 14371ms total)
T3148 6443:635 JLINK_WriteReg(CFBP, 0x00000000)  returns 0x00 (0000ms, 14371ms total)
T3148 6443:635 JLINK_SetBPEx(Addr = 0x20000000, Type = 0xFFFFFFF2)  returns 0x00000005 (0000ms, 14371ms total)
T3148 6443:635 JLINK_Go() -- CPU_ReadMem(4 bytes @ 0xE0001000) (0004ms, 14375ms total)
T3148 6443:639 JLINK_IsHalted()  returns FALSE (0000ms, 14375ms total)
T3148 6443:644 JLINK_IsHalted()  returns FALSE (0000ms, 14375ms total)
T3148 6443:646 JLINK_IsHalted()  returns FALSE (0000ms, 14375ms total)
T3148 6443:648 JLINK_IsHalted()  returns FALSE (0000ms, 14375ms total)
T3148 6443:650 JLINK_IsHalted()  returns FALSE (0000ms, 14375ms total)
T3148 6443:652 JLINK_IsHalted() -- CPU_ReadMem(2 bytes @ 0x20000000)  returns TRUE (0002ms, 14377ms total)
T3148 6443:654 JLINK_ReadReg(R15 (PC))  returns 0x20000000 (0000ms, 14375ms total)
T3148 6443:654 JLINK_ClrBPEx(BPHandle = 0x00000005)  returns 0x00 (0000ms, 14375ms total)
T3148 6443:654 JLINK_ReadReg(R0)  returns 0x00000000 (0000ms, 14375ms total)
T3148 6443:654 JLINK_WriteMem(0x20000164, 0x029C Bytes, ...) - Data: 43 B1 61 4B 08 33 1E 68 01 23 8B 40 1E 43 5E 4B ... -- CPU_WriteMem(668 bytes @ 0x20000164)  returns 0x29C (0004ms, 14379ms total)
T3148 6443:658 JLINK_WriteMem(0x20000400, 0x0164 Bytes, ...) - Data: 40 F0 10 00 0C 49 88 61 0C 48 40 68 20 F4 70 00 ... -- CPU_WriteMem(356 bytes @ 0x20000400)  returns 0x164 (0002ms, 14381ms total)
T3148 6443:660 JLINK_WriteReg(R0, 0x08000400)  returns 0x00 (0000ms, 14381ms total)
T3148 6443:660 JLINK_WriteReg(R1, 0x00000400)  returns 0x00 (0000ms, 14381ms total)
T3148 6443:660 JLINK_WriteReg(R2, 0x20000164)  returns 0x00 (0000ms, 14381ms total)
T3148 6443:660 JLINK_WriteReg(R3, 0x00000000)  returns 0x00 (0000ms, 14381ms total)
T3148 6443:660 JLINK_WriteReg(R4, 0x00000000)  returns 0x00 (0000ms, 14381ms total)
T3148 6443:660 JLINK_WriteReg(R5, 0x00000000)  returns 0x00 (0000ms, 14381ms total)
T3148 6443:660 JLINK_WriteReg(R6, 0x00000000)  returns 0x00 (0000ms, 14381ms total)
T3148 6443:660 JLINK_WriteReg(R7, 0x00000000)  returns 0x00 (0000ms, 14381ms total)
T3148 6443:660 JLINK_WriteReg(R8, 0x00000000)  returns 0x00 (0000ms, 14381ms total)
T3148 6443:660 JLINK_WriteReg(R9, 0x20000160)  returns 0x00 (0000ms, 14381ms total)
T3148 6443:660 JLINK_WriteReg(R10, 0x00000000)  returns 0x00 (0000ms, 14381ms total)
T3148 6443:660 JLINK_WriteReg(R11, 0x00000000)  returns 0x00 (0000ms, 14381ms total)
T3148 6443:660 JLINK_WriteReg(R12, 0x00000000)  returns 0x00 (0000ms, 14381ms total)
T3148 6443:660 JLINK_WriteReg(R13 (SP), 0x20001000)  returns 0x00 (0000ms, 14381ms total)
T3148 6443:660 JLINK_WriteReg(R14, 0x20000001)  returns 0x00 (0000ms, 14381ms total)
T3148 6443:660 JLINK_WriteReg(R15 (PC), 0x200000F4)  returns 0x00 (0000ms, 14381ms total)
T3148 6443:660 JLINK_WriteReg(XPSR, 0x01000000)  returns 0x00 (0000ms, 14381ms total)
T3148 6443:660 JLINK_WriteReg(MSP, 0x20001000)  returns 0x00 (0000ms, 14381ms total)
T3148 6443:660 JLINK_WriteReg(PSP, 0x20001000)  returns 0x00 (0000ms, 14381ms total)
T3148 6443:660 JLINK_WriteReg(CFBP, 0x00000000)  returns 0x00 (0000ms, 14381ms total)
T3148 6443:660 JLINK_SetBPEx(Addr = 0x20000000, Type = 0xFFFFFFF2)  returns 0x00000006 (0000ms, 14381ms total)
T3148 6443:660 JLINK_Go() -- CPU_ReadMem(4 bytes @ 0xE0001000) (0002ms, 14383ms total)
T3148 6443:662 JLINK_IsHalted()  returns FALSE (0000ms, 14383ms total)
T3148 6443:664 JLINK_IsHalted()  returns FALSE (0000ms, 14383ms total)
T3148 6443:666 JLINK_IsHalted()  returns FALSE (0000ms, 14383ms total)
T3148 6443:668 JLINK_IsHalted()  returns FALSE (0000ms, 14383ms total)
T3148 6443:670 JLINK_IsHalted()  returns FALSE (0001ms, 14384ms total)
T3148 6443:672 JLINK_IsHalted()  returns FALSE (0000ms, 14383ms total)
T3148 6443:673 JLINK_IsHalted()  returns FALSE (0000ms, 14383ms total)
T3148 6443:675 JLINK_IsHalted() -- CPU_ReadMem(2 bytes @ 0x20000000)  returns TRUE (0003ms, 14386ms total)
T3148 6443:678 JLINK_ReadReg(R15 (PC))  returns 0x20000000 (0000ms, 14383ms total)
T3148 6443:678 JLINK_ClrBPEx(BPHandle = 0x00000006)  returns 0x00 (0000ms, 14383ms total)
T3148 6443:678 JLINK_ReadReg(R0)  returns 0x00000000 (0000ms, 14383ms total)
T3148 6443:678 JLINK_WriteMem(0x20000164, 0x029C Bytes, ...) - Data: 1B 1F 1A 60 1A 46 12 68 42 F0 3B 42 1A 60 2A 4A ... -- CPU_WriteMem(668 bytes @ 0x20000164)  returns 0x29C (0002ms, 14385ms total)
T3148 6443:681 JLINK_WriteMem(0x20000400, 0x0164 Bytes, ...) - Data: 40 42 0F 00 00 10 02 40 00 08 01 40 08 44 00 40 ... -- CPU_WriteMem(356 bytes @ 0x20000400)  returns 0x164 (0002ms, 14388ms total)
T3148 6443:683 JLINK_WriteReg(R0, 0x08000800)  returns 0x00 (0000ms, 14388ms total)
T3148 6443:683 JLINK_WriteReg(R1, 0x00000400)  returns 0x00 (0000ms, 14388ms total)
T3148 6443:683 JLINK_WriteReg(R2, 0x20000164)  returns 0x00 (0000ms, 14388ms total)
T3148 6443:683 JLINK_WriteReg(R3, 0x00000000)  returns 0x00 (0000ms, 14388ms total)
T3148 6443:683 JLINK_WriteReg(R4, 0x00000000)  returns 0x00 (0000ms, 14388ms total)
T3148 6443:683 JLINK_WriteReg(R5, 0x00000000)  returns 0x00 (0000ms, 14388ms total)
T3148 6443:683 JLINK_WriteReg(R6, 0x00000000)  returns 0x00 (0000ms, 14388ms total)
T3148 6443:683 JLINK_WriteReg(R7, 0x00000000)  returns 0x00 (0000ms, 14388ms total)
T3148 6443:683 JLINK_WriteReg(R8, 0x00000000)  returns 0x00 (0000ms, 14388ms total)
T3148 6443:683 JLINK_WriteReg(R9, 0x20000160)  returns 0x00 (0000ms, 14388ms total)
T3148 6443:683 JLINK_WriteReg(R10, 0x00000000)  returns 0x00 (0000ms, 14388ms total)
T3148 6443:683 JLINK_WriteReg(R11, 0x00000000)  returns 0x00 (0000ms, 14388ms total)
T3148 6443:683 JLINK_WriteReg(R12, 0x00000000)  returns 0x00 (0000ms, 14388ms total)
T3148 6443:683 JLINK_WriteReg(R13 (SP), 0x20001000)  returns 0x00 (0000ms, 14388ms total)
T3148 6443:683 JLINK_WriteReg(R14, 0x20000001)  returns 0x00 (0000ms, 14388ms total)
T3148 6443:683 JLINK_WriteReg(R15 (PC), 0x200000F4)  returns 0x00 (0000ms, 14388ms total)
T3148 6443:683 JLINK_WriteReg(XPSR, 0x01000000)  returns 0x00 (0000ms, 14388ms total)
T3148 6443:683 JLINK_WriteReg(MSP, 0x20001000)  returns 0x00 (0000ms, 14388ms total)
T3148 6443:683 JLINK_WriteReg(PSP, 0x20001000)  returns 0x00 (0000ms, 14388ms total)
T3148 6443:683 JLINK_WriteReg(CFBP, 0x00000000)  returns 0x00 (0000ms, 14388ms total)
T3148 6443:683 JLINK_SetBPEx(Addr = 0x20000000, Type = 0xFFFFFFF2)  returns 0x00000007 (0000ms, 14388ms total)
T3148 6443:683 JLINK_Go() -- CPU_ReadMem(4 bytes @ 0xE0001000) (0002ms, 14390ms total)
T3148 6443:685 JLINK_IsHalted()  returns FALSE (0000ms, 14390ms total)
T3148 6443:688 JLINK_IsHalted()  returns FALSE (0000ms, 14390ms total)
T3148 6443:691 JLINK_IsHalted()  returns FALSE (0000ms, 14390ms total)
T3148 6443:693 JLINK_IsHalted()  returns FALSE (0000ms, 14390ms total)
T3148 6443:695 JLINK_IsHalted()  returns FALSE (0000ms, 14390ms total)
T3148 6443:697 JLINK_IsHalted()  returns FALSE (0000ms, 14390ms total)
T3148 6443:700 JLINK_IsHalted() -- CPU_ReadMem(2 bytes @ 0x20000000)  returns TRUE (0002ms, 14392ms total)
T3148 6443:702 JLINK_ReadReg(R15 (PC))  returns 0x20000000 (0000ms, 14390ms total)
T3148 6443:702 JLINK_ClrBPEx(BPHandle = 0x00000007)  returns 0x00 (0000ms, 14390ms total)
T3148 6443:702 JLINK_ReadReg(R0)  returns 0x00000000 (0000ms, 14390ms total)
T3148 6443:702 JLINK_WriteMem(0x20000164, 0x029C Bytes, ...) - Data: 80 46 00 22 A0 4B 03 F0 5D FA 04 46 03 F0 78 F9 ... -- CPU_WriteMem(668 bytes @ 0x20000164)  returns 0x29C (0004ms, 14394ms total)
T3148 6443:706 JLINK_WriteMem(0x20000400, 0x0164 Bytes, ...) - Data: 2D E9 F0 5F 06 46 0F 46 39 46 30 46 04 F0 B8 F8 ... -- CPU_WriteMem(356 bytes @ 0x20000400)  returns 0x164 (0002ms, 14396ms total)
T3148 6443:708 JLINK_WriteReg(R0, 0x08000C00)  returns 0x00 (0000ms, 14396ms total)
T3148 6443:708 JLINK_WriteReg(R1, 0x00000400)  returns 0x00 (0000ms, 14396ms total)
T3148 6443:708 JLINK_WriteReg(R2, 0x20000164)  returns 0x00 (0000ms, 14396ms total)
T3148 6443:708 JLINK_WriteReg(R3, 0x00000000)  returns 0x00 (0000ms, 14396ms total)
T3148 6443:708 JLINK_WriteReg(R4, 0x00000000)  returns 0x00 (0000ms, 14396ms total)
T3148 6443:708 JLINK_WriteReg(R5, 0x00000000)  returns 0x00 (0000ms, 14396ms total)
T3148 6443:708 JLINK_WriteReg(R6, 0x00000000)  returns 0x00 (0000ms, 14396ms total)
T3148 6443:708 JLINK_WriteReg(R7, 0x00000000)  returns 0x00 (0000ms, 14396ms total)
T3148 6443:708 JLINK_WriteReg(R8, 0x00000000)  returns 0x00 (0000ms, 14396ms total)
T3148 6443:708 JLINK_WriteReg(R9, 0x20000160)  returns 0x00 (0000ms, 14396ms total)
T3148 6443:708 JLINK_WriteReg(R10, 0x00000000)  returns 0x00 (0000ms, 14396ms total)
T3148 6443:708 JLINK_WriteReg(R11, 0x00000000)  returns 0x00 (0000ms, 14396ms total)
T3148 6443:708 JLINK_WriteReg(R12, 0x00000000)  returns 0x00 (0000ms, 14396ms total)
T3148 6443:708 JLINK_WriteReg(R13 (SP), 0x20001000)  returns 0x00 (0000ms, 14396ms total)
T3148 6443:708 JLINK_WriteReg(R14, 0x20000001)  returns 0x00 (0000ms, 14396ms total)
T3148 6443:708 JLINK_WriteReg(R15 (PC), 0x200000F4)  returns 0x00 (0000ms, 14396ms total)
T3148 6443:708 JLINK_WriteReg(XPSR, 0x01000000)  returns 0x00 (0000ms, 14396ms total)
T3148 6443:708 JLINK_WriteReg(MSP, 0x20001000)  returns 0x00 (0000ms, 14396ms total)
T3148 6443:708 JLINK_WriteReg(PSP, 0x20001000)  returns 0x00 (0000ms, 14396ms total)
T3148 6443:708 JLINK_WriteReg(CFBP, 0x00000000)  returns 0x00 (0000ms, 14396ms total)
T3148 6443:708 JLINK_SetBPEx(Addr = 0x20000000, Type = 0xFFFFFFF2)  returns 0x00000008 (0000ms, 14396ms total)
T3148 6443:708 JLINK_Go() -- CPU_ReadMem(4 bytes @ 0xE0001000) (0003ms, 14399ms total)
T3148 6443:711 JLINK_IsHalted()  returns FALSE (0000ms, 14399ms total)
T3148 6443:713 JLINK_IsHalted()  returns FALSE (0000ms, 14399ms total)
T3148 6443:715 JLINK_IsHalted()  returns FALSE (0000ms, 14399ms total)
T3148 6443:717 JLINK_IsHalted()  returns FALSE (0001ms, 14400ms total)
T3148 6443:720 JLINK_IsHalted()  returns FALSE (0000ms, 14399ms total)
T3148 6443:721 JLINK_IsHalted()  returns FALSE (0001ms, 14400ms total)
T3148 6443:723 JLINK_IsHalted()  returns FALSE (0000ms, 14399ms total)
T3148 6443:725 JLINK_IsHalted() -- CPU_ReadMem(2 bytes @ 0x20000000)  returns TRUE (0002ms, 14401ms total)
T3148 6443:727 JLINK_ReadReg(R15 (PC))  returns 0x20000000 (0000ms, 14399ms total)
T3148 6443:727 JLINK_ClrBPEx(BPHandle = 0x00000008)  returns 0x00 (0000ms, 14399ms total)
T3148 6443:727 JLINK_ReadReg(R0)  returns 0x00000000 (0000ms, 14399ms total)
T3148 6443:728 JLINK_WriteMem(0x20000164, 0x029C Bytes, ...) - Data: 05 FF 80 46 95 48 01 68 97 48 00 68 03 F0 FE FE ... -- CPU_WriteMem(668 bytes @ 0x20000164)  returns 0x29C (0003ms, 14402ms total)
T3148 6443:731 JLINK_WriteMem(0x20000400, 0x0164 Bytes, ...) - Data: BC 00 00 20 F0 00 00 20 CC 00 00 20 C8 00 00 20 ... -- CPU_WriteMem(356 bytes @ 0x20000400)  returns 0x164 (0001ms, 14403ms total)
T3148 6443:732 JLINK_WriteReg(R0, 0x08001000)  returns 0x00 (0000ms, 14403ms total)
T3148 6443:732 JLINK_WriteReg(R1, 0x00000400)  returns 0x00 (0000ms, 14403ms total)
T3148 6443:732 JLINK_WriteReg(R2, 0x20000164)  returns 0x00 (0000ms, 14403ms total)
T3148 6443:732 JLINK_WriteReg(R3, 0x00000000)  returns 0x00 (0000ms, 14403ms total)
T3148 6443:732 JLINK_WriteReg(R4, 0x00000000)  returns 0x00 (0000ms, 14403ms total)
T3148 6443:732 JLINK_WriteReg(R5, 0x00000000)  returns 0x00 (0000ms, 14403ms total)
T3148 6443:732 JLINK_WriteReg(R6, 0x00000000)  returns 0x00 (0000ms, 14403ms total)
T3148 6443:732 JLINK_WriteReg(R7, 0x00000000)  returns 0x00 (0000ms, 14403ms total)
T3148 6443:732 JLINK_WriteReg(R8, 0x00000000)  returns 0x00 (0000ms, 14403ms total)
T3148 6443:732 JLINK_WriteReg(R9, 0x20000160)  returns 0x00 (0000ms, 14403ms total)
T3148 6443:732 JLINK_WriteReg(R10, 0x00000000)  returns 0x00 (0000ms, 14403ms total)
T3148 6443:732 JLINK_WriteReg(R11, 0x00000000)  returns 0x00 (0001ms, 14404ms total)
T3148 6443:733 JLINK_WriteReg(R12, 0x00000000)  returns 0x00 (0000ms, 14404ms total)
T3148 6443:733 JLINK_WriteReg(R13 (SP), 0x20001000)  returns 0x00 (0000ms, 14404ms total)
T3148 6443:733 JLINK_WriteReg(R14, 0x20000001)  returns 0x00 (0000ms, 14404ms total)
T3148 6443:733 JLINK_WriteReg(R15 (PC), 0x200000F4)  returns 0x00 (0000ms, 14404ms total)
T3148 6443:733 JLINK_WriteReg(XPSR, 0x01000000)  returns 0x00 (0000ms, 14404ms total)
T3148 6443:733 JLINK_WriteReg(MSP, 0x20001000)  returns 0x00 (0000ms, 14404ms total)
T3148 6443:733 JLINK_WriteReg(PSP, 0x20001000)  returns 0x00 (0000ms, 14404ms total)
T3148 6443:733 JLINK_WriteReg(CFBP, 0x00000000)  returns 0x00 (0000ms, 14404ms total)
T3148 6443:733 JLINK_SetBPEx(Addr = 0x20000000, Type = 0xFFFFFFF2)  returns 0x00000009 (0000ms, 14404ms total)
T3148 6443:733 JLINK_Go() -- CPU_ReadMem(4 bytes @ 0xE0001000) (0002ms, 14406ms total)
T3148 6443:735 JLINK_IsHalted()  returns FALSE (0000ms, 14406ms total)
T3148 6443:737 JLINK_IsHalted()  returns FALSE (0000ms, 14406ms total)
T3148 6443:739 JLINK_IsHalted()  returns FALSE (0000ms, 14406ms total)
T3148 6443:741 JLINK_IsHalted()  returns FALSE (0000ms, 14406ms total)
T3148 6443:743 JLINK_IsHalted()  returns FALSE (0000ms, 14406ms total)
T3148 6443:744 JLINK_IsHalted()  returns FALSE (0001ms, 14407ms total)
T3148 6443:746 JLINK_IsHalted()  returns FALSE (0000ms, 14406ms total)
T3148 6443:748 JLINK_IsHalted()  returns FALSE (0000ms, 14406ms total)
T3148 6443:750 JLINK_IsHalted() -- CPU_ReadMem(2 bytes @ 0x20000000)  returns TRUE (0002ms, 14408ms total)
T3148 6443:752 JLINK_ReadReg(R15 (PC))  returns 0x20000000 (0000ms, 14406ms total)
T3148 6443:752 JLINK_ClrBPEx(BPHandle = 0x00000009)  returns 0x00 (0000ms, 14406ms total)
T3148 6443:752 JLINK_ReadReg(R0)  returns 0x00000000 (0000ms, 14406ms total)
T3148 6443:752 JLINK_WriteMem(0x20000164, 0x029C Bytes, ...) - Data: 89 8F 4C 4A 11 60 11 46 09 68 4B 4A 11 60 4F F0 ... -- CPU_WriteMem(668 bytes @ 0x20000164)  returns 0x29C (0003ms, 14409ms total)
T3148 6443:755 JLINK_WriteMem(0x20000400, 0x0164 Bytes, ...) - Data: 00 21 D3 48 FF F7 81 FF 01 25 08 E0 D0 48 50 F8 ... -- CPU_WriteMem(356 bytes @ 0x20000400)  returns 0x164 (0003ms, 14412ms total)
T3148 6443:758 JLINK_WriteReg(R0, 0x08001400)  returns 0x00 (0000ms, 14412ms total)
T3148 6443:758 JLINK_WriteReg(R1, 0x00000400)  returns 0x00 (0000ms, 14412ms total)
T3148 6443:758 JLINK_WriteReg(R2, 0x20000164)  returns 0x00 (0000ms, 14412ms total)
T3148 6443:758 JLINK_WriteReg(R3, 0x00000000)  returns 0x00 (0000ms, 14412ms total)
T3148 6443:758 JLINK_WriteReg(R4, 0x00000000)  returns 0x00 (0000ms, 14412ms total)
T3148 6443:758 JLINK_WriteReg(R5, 0x00000000)  returns 0x00 (0000ms, 14412ms total)
T3148 6443:758 JLINK_WriteReg(R6, 0x00000000)  returns 0x00 (0000ms, 14412ms total)
T3148 6443:758 JLINK_WriteReg(R7, 0x00000000)  returns 0x00 (0000ms, 14412ms total)
T3148 6443:758 JLINK_WriteReg(R8, 0x00000000)  returns 0x00 (0000ms, 14412ms total)
T3148 6443:758 JLINK_WriteReg(R9, 0x20000160)  returns 0x00 (0000ms, 14412ms total)
T3148 6443:758 JLINK_WriteReg(R10, 0x00000000)  returns 0x00 (0000ms, 14412ms total)
T3148 6443:758 JLINK_WriteReg(R11, 0x00000000)  returns 0x00 (0000ms, 14412ms total)
T3148 6443:758 JLINK_WriteReg(R12, 0x00000000)  returns 0x00 (0000ms, 14412ms total)
T3148 6443:758 JLINK_WriteReg(R13 (SP), 0x20001000)  returns 0x00 (0000ms, 14412ms total)
T3148 6443:758 JLINK_WriteReg(R14, 0x20000001)  returns 0x00 (0000ms, 14412ms total)
T3148 6443:758 JLINK_WriteReg(R15 (PC), 0x200000F4)  returns 0x00 (0000ms, 14412ms total)
T3148 6443:758 JLINK_WriteReg(XPSR, 0x01000000)  returns 0x00 (0000ms, 14412ms total)
T3148 6443:758 JLINK_WriteReg(MSP, 0x20001000)  returns 0x00 (0000ms, 14412ms total)
T3148 6443:758 JLINK_WriteReg(PSP, 0x20001000)  returns 0x00 (0000ms, 14412ms total)
T3148 6443:758 JLINK_WriteReg(CFBP, 0x00000000)  returns 0x00 (0000ms, 14412ms total)
T3148 6443:758 JLINK_SetBPEx(Addr = 0x20000000, Type = 0xFFFFFFF2)  returns 0x0000000A (0000ms, 14412ms total)
T3148 6443:758 JLINK_Go() -- CPU_ReadMem(4 bytes @ 0xE0001000) (0003ms, 14415ms total)
T3148 6443:761 JLINK_IsHalted()  returns FALSE (0000ms, 14415ms total)
T3148 6443:763 JLINK_IsHalted()  returns FALSE (0000ms, 14415ms total)
T3148 6443:764 JLINK_IsHalted()  returns FALSE (0001ms, 14416ms total)
T3148 6443:766 JLINK_IsHalted()  returns FALSE (0000ms, 14415ms total)
T3148 6443:768 JLINK_IsHalted()  returns FALSE (0000ms, 14415ms total)
T3148 6443:770 JLINK_IsHalted()  returns FALSE (0000ms, 14415ms total)
T3148 6443:772 JLINK_IsHalted()  returns FALSE (0000ms, 14415ms total)
T3148 6443:774 JLINK_IsHalted() -- CPU_ReadMem(2 bytes @ 0x20000000)  returns TRUE (0002ms, 14417ms total)
T3148 6443:776 JLINK_ReadReg(R15 (PC))  returns 0x20000000 (0000ms, 14415ms total)
T3148 6443:776 JLINK_ClrBPEx(BPHandle = 0x0000000A)  returns 0x00 (0000ms, 14415ms total)
T3148 6443:776 JLINK_ReadReg(R0)  returns 0x00000000 (0000ms, 14415ms total)
T3148 6443:776 JLINK_WriteMem(0x20000164, 0x029C Bytes, ...) - Data: 00 0A D3 46 00 20 04 90 03 90 02 90 01 90 B5 F9 ... -- CPU_WriteMem(668 bytes @ 0x20000164)  returns 0x29C (0004ms, 14419ms total)
T3148 6443:780 JLINK_WriteMem(0x20000400, 0x0164 Bytes, ...) - Data: 2D E9 F0 47 06 46 0F 46 14 46 4F F0 00 08 6A 48 ... -- CPU_WriteMem(356 bytes @ 0x20000400)  returns 0x164 (0002ms, 14421ms total)
T3148 6443:782 JLINK_WriteReg(R0, 0x08001800)  returns 0x00 (0000ms, 14421ms total)
T3148 6443:782 JLINK_WriteReg(R1, 0x00000400)  returns 0x00 (0000ms, 14421ms total)
T3148 6443:782 JLINK_WriteReg(R2, 0x20000164)  returns 0x00 (0000ms, 14421ms total)
T3148 6443:782 JLINK_WriteReg(R3, 0x00000000)  returns 0x00 (0000ms, 14421ms total)
T3148 6443:782 JLINK_WriteReg(R4, 0x00000000)  returns 0x00 (0000ms, 14421ms total)
T3148 6443:782 JLINK_WriteReg(R5, 0x00000000)  returns 0x00 (0000ms, 14421ms total)
T3148 6443:782 JLINK_WriteReg(R6, 0x00000000)  returns 0x00 (0000ms, 14421ms total)
T3148 6443:782 JLINK_WriteReg(R7, 0x00000000)  returns 0x00 (0000ms, 14421ms total)
T3148 6443:782 JLINK_WriteReg(R8, 0x00000000)  returns 0x00 (0000ms, 14421ms total)
T3148 6443:782 JLINK_WriteReg(R9, 0x20000160)  returns 0x00 (0000ms, 14421ms total)
T3148 6443:782 JLINK_WriteReg(R10, 0x00000000)  returns 0x00 (0000ms, 14421ms total)
T3148 6443:782 JLINK_WriteReg(R11, 0x00000000)  returns 0x00 (0000ms, 14421ms total)
T3148 6443:782 JLINK_WriteReg(R12, 0x00000000)  returns 0x00 (0000ms, 14421ms total)
T3148 6443:782 JLINK_WriteReg(R13 (SP), 0x20001000)  returns 0x00 (0000ms, 14421ms total)
T3148 6443:782 JLINK_WriteReg(R14, 0x20000001)  returns 0x00 (0000ms, 14421ms total)
T3148 6443:782 JLINK_WriteReg(R15 (PC), 0x200000F4)  returns 0x00 (0000ms, 14421ms total)
T3148 6443:782 JLINK_WriteReg(XPSR, 0x01000000)  returns 0x00 (0000ms, 14421ms total)
T3148 6443:782 JLINK_WriteReg(MSP, 0x20001000)  returns 0x00 (0000ms, 14421ms total)
T3148 6443:782 JLINK_WriteReg(PSP, 0x20001000)  returns 0x00 (0000ms, 14421ms total)
T3148 6443:782 JLINK_WriteReg(CFBP, 0x00000000)  returns 0x00 (0000ms, 14421ms total)
T3148 6443:782 JLINK_SetBPEx(Addr = 0x20000000, Type = 0xFFFFFFF2)  returns 0x0000000B (0000ms, 14421ms total)
T3148 6443:782 JLINK_Go() -- CPU_ReadMem(4 bytes @ 0xE0001000) (0002ms, 14423ms total)
T3148 6443:784 JLINK_IsHalted()  returns FALSE (0001ms, 14424ms total)
T3148 6443:787 JLINK_IsHalted()  returns FALSE (0000ms, 14423ms total)
T3148 6443:789 JLINK_IsHalted()  returns FALSE (0000ms, 14423ms total)
T3148 6443:791 JLINK_IsHalted()  returns FALSE (0000ms, 14423ms total)
T3148 6443:793 JLINK_IsHalted()  returns FALSE (0000ms, 14423ms total)
T3148 6443:796 JLINK_IsHalted()  returns FALSE (0000ms, 14423ms total)
T3148 6443:798 JLINK_IsHalted() -- CPU_ReadMem(2 bytes @ 0x20000000)  returns TRUE (0001ms, 14424ms total)
T3148 6443:799 JLINK_ReadReg(R15 (PC))  returns 0x20000000 (0000ms, 14423ms total)
T3148 6443:799 JLINK_ClrBPEx(BPHandle = 0x0000000B)  returns 0x00 (0000ms, 14423ms total)
T3148 6443:799 JLINK_ReadReg(R0)  returns 0x00000000 (0000ms, 14423ms total)
T3148 6443:800 JLINK_WriteMem(0x20000164, 0x029C Bytes, ...) - Data: 00 21 20 68 03 F0 CE F9 01 D2 20 68 02 E0 20 68 ... -- CPU_WriteMem(668 bytes @ 0x20000164)  returns 0x29C (0003ms, 14426ms total)
T3148 6443:803 JLINK_WriteMem(0x20000400, 0x0164 Bytes, ...) - Data: 08 60 01 20 FE F7 E2 F9 4F F4 80 60 64 49 10 31 ... -- CPU_WriteMem(356 bytes @ 0x20000400)  returns 0x164 (0002ms, 14428ms total)
T3148 6443:805 JLINK_WriteReg(R0, 0x08001C00)  returns 0x00 (0000ms, 14428ms total)
T3148 6443:805 JLINK_WriteReg(R1, 0x00000400)  returns 0x00 (0000ms, 14428ms total)
T3148 6443:805 JLINK_WriteReg(R2, 0x20000164)  returns 0x00 (0000ms, 14428ms total)
T3148 6443:805 JLINK_WriteReg(R3, 0x00000000)  returns 0x00 (0000ms, 14428ms total)
T3148 6443:805 JLINK_WriteReg(R4, 0x00000000)  returns 0x00 (0000ms, 14428ms total)
T3148 6443:805 JLINK_WriteReg(R5, 0x00000000)  returns 0x00 (0000ms, 14428ms total)
T3148 6443:805 JLINK_WriteReg(R6, 0x00000000)  returns 0x00 (0000ms, 14428ms total)
T3148 6443:805 JLINK_WriteReg(R7, 0x00000000)  returns 0x00 (0000ms, 14428ms total)
T3148 6443:805 JLINK_WriteReg(R8, 0x00000000)  returns 0x00 (0000ms, 14428ms total)
T3148 6443:805 JLINK_WriteReg(R9, 0x20000160)  returns 0x00 (0000ms, 14428ms total)
T3148 6443:805 JLINK_WriteReg(R10, 0x00000000)  returns 0x00 (0000ms, 14428ms total)
T3148 6443:805 JLINK_WriteReg(R11, 0x00000000)  returns 0x00 (0000ms, 14428ms total)
T3148 6443:805 JLINK_WriteReg(R12, 0x00000000)  returns 0x00 (0000ms, 14428ms total)
T3148 6443:805 JLINK_WriteReg(R13 (SP), 0x20001000)  returns 0x00 (0000ms, 14428ms total)
T3148 6443:805 JLINK_WriteReg(R14, 0x20000001)  returns 0x00 (0000ms, 14428ms total)
T3148 6443:805 JLINK_WriteReg(R15 (PC), 0x200000F4)  returns 0x00 (0000ms, 14428ms total)
T3148 6443:805 JLINK_WriteReg(XPSR, 0x01000000)  returns 0x00 (0000ms, 14428ms total)
T3148 6443:805 JLINK_WriteReg(MSP, 0x20001000)  returns 0x00 (0000ms, 14428ms total)
T3148 6443:805 JLINK_WriteReg(PSP, 0x20001000)  returns 0x00 (0000ms, 14428ms total)
T3148 6443:805 JLINK_WriteReg(CFBP, 0x00000000)  returns 0x00 (0000ms, 14428ms total)
T3148 6443:805 JLINK_SetBPEx(Addr = 0x20000000, Type = 0xFFFFFFF2)  returns 0x0000000C (0000ms, 14428ms total)
T3148 6443:805 JLINK_Go() -- CPU_ReadMem(4 bytes @ 0xE0001000) (0003ms, 14431ms total)
T3148 6443:808 JLINK_IsHalted()  returns FALSE (0001ms, 14432ms total)
T3148 6443:811 JLINK_IsHalted()  returns FALSE (0000ms, 14431ms total)
T3148 6443:813 JLINK_IsHalted()  returns FALSE (0001ms, 14432ms total)
T3148 6443:815 JLINK_IsHalted()  returns FALSE (0000ms, 14431ms total)
T3148 6443:816 JLINK_IsHalted()  returns FALSE (0001ms, 14432ms total)
T3148 6443:818 JLINK_IsHalted()  returns FALSE (0000ms, 14431ms total)
T3148 6443:820 JLINK_IsHalted()  returns FALSE (0000ms, 14431ms total)
T3148 6443:822 JLINK_IsHalted() -- CPU_ReadMem(2 bytes @ 0x20000000)  returns TRUE (0002ms, 14433ms total)
T3148 6443:824 JLINK_ReadReg(R15 (PC))  returns 0x20000000 (0000ms, 14431ms total)
T3148 6443:824 JLINK_ClrBPEx(BPHandle = 0x0000000C)  returns 0x00 (0000ms, 14431ms total)
T3148 6443:824 JLINK_ReadReg(R0)  returns 0x00000000 (0000ms, 14431ms total)
T3148 6443:825 JLINK_WriteMem(0x20000164, 0x029C Bytes, ...) - Data: FF F7 8F FE 01 20 BD E8 F0 81 28 46 FF F7 08 FF ... -- CPU_WriteMem(668 bytes @ 0x20000164)  returns 0x29C (0003ms, 14434ms total)
T3148 6443:828 JLINK_WriteMem(0x20000400, 0x0164 Bytes, ...) - Data: 20 99 02 F0 B5 FD 00 21 0B 90 02 F0 E1 FC 01 D1 ... -- CPU_WriteMem(356 bytes @ 0x20000400)  returns 0x164 (0002ms, 14436ms total)
T3148 6443:830 JLINK_WriteReg(R0, 0x08002000)  returns 0x00 (0000ms, 14436ms total)
T3148 6443:830 JLINK_WriteReg(R1, 0x00000400)  returns 0x00 (0000ms, 14436ms total)
T3148 6443:830 JLINK_WriteReg(R2, 0x20000164)  returns 0x00 (0000ms, 14436ms total)
T3148 6443:830 JLINK_WriteReg(R3, 0x00000000)  returns 0x00 (0000ms, 14436ms total)
T3148 6443:830 JLINK_WriteReg(R4, 0x00000000)  returns 0x00 (0000ms, 14436ms total)
T3148 6443:830 JLINK_WriteReg(R5, 0x00000000)  returns 0x00 (0000ms, 14436ms total)
T3148 6443:830 JLINK_WriteReg(R6, 0x00000000)  returns 0x00 (0000ms, 14436ms total)
T3148 6443:830 JLINK_WriteReg(R7, 0x00000000)  returns 0x00 (0000ms, 14436ms total)
T3148 6443:830 JLINK_WriteReg(R8, 0x00000000)  returns 0x00 (0000ms, 14436ms total)
T3148 6443:830 JLINK_WriteReg(R9, 0x20000160)  returns 0x00 (0000ms, 14436ms total)
T3148 6443:830 JLINK_WriteReg(R10, 0x00000000)  returns 0x00 (0000ms, 14436ms total)
T3148 6443:830 JLINK_WriteReg(R11, 0x00000000)  returns 0x00 (0000ms, 14436ms total)
T3148 6443:830 JLINK_WriteReg(R12, 0x00000000)  returns 0x00 (0000ms, 14436ms total)
T3148 6443:830 JLINK_WriteReg(R13 (SP), 0x20001000)  returns 0x00 (0000ms, 14436ms total)
T3148 6443:830 JLINK_WriteReg(R14, 0x20000001)  returns 0x00 (0000ms, 14436ms total)
T3148 6443:831 JLINK_WriteReg(R15 (PC), 0x200000F4)  returns 0x00 (0000ms, 14436ms total)
T3148 6443:831 JLINK_WriteReg(XPSR, 0x01000000)  returns 0x00 (0000ms, 14436ms total)
T3148 6443:831 JLINK_WriteReg(MSP, 0x20001000)  returns 0x00 (0000ms, 14436ms total)
T3148 6443:831 JLINK_WriteReg(PSP, 0x20001000)  returns 0x00 (0000ms, 14436ms total)
T3148 6443:831 JLINK_WriteReg(CFBP, 0x00000000)  returns 0x00 (0000ms, 14436ms total)
T3148 6443:831 JLINK_SetBPEx(Addr = 0x20000000, Type = 0xFFFFFFF2)  returns 0x0000000D (0000ms, 14436ms total)
T3148 6443:831 JLINK_Go() -- CPU_ReadMem(4 bytes @ 0xE0001000) (0002ms, 14438ms total)
T3148 6443:833 JLINK_IsHalted()  returns FALSE (0001ms, 14439ms total)
T3148 6443:836 JLINK_IsHalted()  returns FALSE (0000ms, 14438ms total)
T3148 6443:838 JLINK_IsHalted()  returns FALSE (0000ms, 14438ms total)
T3148 6443:840 JLINK_IsHalted()  returns FALSE (0001ms, 14439ms total)
T3148 6443:842 JLINK_IsHalted()  returns FALSE (0000ms, 14438ms total)
T3148 6443:844 JLINK_IsHalted()  returns FALSE (0000ms, 14438ms total)
T3148 6443:846 JLINK_IsHalted()  returns FALSE (0000ms, 14438ms total)
T3148 6443:847 JLINK_IsHalted() -- CPU_ReadMem(2 bytes @ 0x20000000)  returns TRUE (0002ms, 14440ms total)
T3148 6443:849 JLINK_ReadReg(R15 (PC))  returns 0x20000000 (0000ms, 14438ms total)
T3148 6443:849 JLINK_ClrBPEx(BPHandle = 0x0000000D)  returns 0x00 (0000ms, 14438ms total)
T3148 6443:849 JLINK_ReadReg(R0)  returns 0x00000000 (0000ms, 14438ms total)
T3148 6443:849 JLINK_WriteMem(0x20000164, 0x029C Bytes, ...) - Data: 4F F0 7F 50 18 99 02 F0 01 FD 0A 90 1E 99 02 F0 ... -- CPU_WriteMem(668 bytes @ 0x20000164)  returns 0x29C (0004ms, 14442ms total)
T3148 6443:853 JLINK_WriteMem(0x20000400, 0x0164 Bytes, ...) - Data: 4F F0 80 41 0B 90 02 F0 B3 FB 26 90 11 99 15 98 ... -- CPU_WriteMem(356 bytes @ 0x20000400)  returns 0x164 (0002ms, 14444ms total)
T3148 6443:855 JLINK_WriteReg(R0, 0x08002400)  returns 0x00 (0000ms, 14444ms total)
T3148 6443:855 JLINK_WriteReg(R1, 0x00000400)  returns 0x00 (0000ms, 14444ms total)
T3148 6443:855 JLINK_WriteReg(R2, 0x20000164)  returns 0x00 (0000ms, 14444ms total)
T3148 6443:855 JLINK_WriteReg(R3, 0x00000000)  returns 0x00 (0000ms, 14444ms total)
T3148 6443:855 JLINK_WriteReg(R4, 0x00000000)  returns 0x00 (0000ms, 14444ms total)
T3148 6443:855 JLINK_WriteReg(R5, 0x00000000)  returns 0x00 (0000ms, 14444ms total)
T3148 6443:855 JLINK_WriteReg(R6, 0x00000000)  returns 0x00 (0000ms, 14444ms total)
T3148 6443:855 JLINK_WriteReg(R7, 0x00000000)  returns 0x00 (0000ms, 14444ms total)
T3148 6443:855 JLINK_WriteReg(R8, 0x00000000)  returns 0x00 (0000ms, 14444ms total)
T3148 6443:855 JLINK_WriteReg(R9, 0x20000160)  returns 0x00 (0000ms, 14444ms total)
T3148 6443:855 JLINK_WriteReg(R10, 0x00000000)  returns 0x00 (0000ms, 14444ms total)
T3148 6443:855 JLINK_WriteReg(R11, 0x00000000)  returns 0x00 (0000ms, 14444ms total)
T3148 6443:855 JLINK_WriteReg(R12, 0x00000000)  returns 0x00 (0000ms, 14444ms total)
T3148 6443:855 JLINK_WriteReg(R13 (SP), 0x20001000)  returns 0x00 (0000ms, 14444ms total)
T3148 6443:855 JLINK_WriteReg(R14, 0x20000001)  returns 0x00 (0000ms, 14444ms total)
T3148 6443:855 JLINK_WriteReg(R15 (PC), 0x200000F4)  returns 0x00 (0000ms, 14444ms total)
